# 智能 PID 控制板 硬件电路板与 HMI 屏幕测试说明文档

> 适用项目：`smart_pid_control`（主控 MCU：STC8A8K64D4）
> 通信协议：Modbus RTU，9600bps，8N1，从站地址默认 1
> 测试工具：HMI 触摸屏 / 上位机 `test_app/modbus_pueer.py`

---

## 一、系统功能概述

### 1.1 系统主要逻辑

系统以 STC8A8K64D4 为主控，主要功能包括：

1. **Modbus 通信**：通过 UART2（P1.0/P1.1）+ RS485 与 HMI 屏幕或上位机通信，支持功能码 01/02/03/04/05/06/10。
2. **模拟量采集**：
   - 片内 ADC（P1.2~P1.7）：4 路 NTC 温度（T1~T4）+ 2 路 0~5V 外部模拟量（EXT1/EXT2）
   - 串口 ADC（UART3/UART4）：直流电压、直流电流采集
3. **频率测量**：Timer0 外部计数模式，P3.4 下降沿计数，1 秒闸门测频。
4. **PID 控制**：级联控制（温度 PID 外环 → 功率 PID 内环 → PWM 输出 P2.0），支持三种控制模式：
   - 模式 0：功率恒定模式
   - 模式 1：分段加热模式（5 工件 × 5 段）
   - 模式 2：温度闭环模式
5. **报警管理**：6 路故障检测（水温、水压、过流、缺相、电压超限、频率超限），6 路报警输出 + 1 路总故障输出。
6. **掉电保存**：保持寄存器参数写入 EEPROM，上电自动加载。
7. **启停控制**：三路启动源（触屏线圈、按键 P3.7/P3.6、远程端子 P5.2）。

### 1.2 主循环节拍

- PCA 定时器产生 5ms 系统滴答（[main.c:278](file:///d:/qinheng/smart_pid_control/smart_pid_control/main.c#L278)）
- 主循环每次执行：Modbus 处理 → EEPROM 保存 → 频率测量 → 输入寄存器刷新 → 按键扫描 → 远控扫描 → 报警处理 → PID 控制循环（每 100ms 执行一次）
- 看门狗每次主循环喂狗（[main.c:428](file:///d:/qinheng/smart_pid_control/smart_pid_control/main.c#L428)）

---

## 二、测试前准备

### 2.1 硬件准备

| 设备/工具 | 用途 |
|-----------|------|
| STC8A8K64D4 控制板 | 被测对象 |
| HMI 触摸屏（或 PC + 串口工具） | Modbus 主站，下发命令/显示数据 |
| RS485 串口线 | 连接控制板 UART2 与 HMI/PC |
| DC 稳压电源 | 模拟直流电压输入（接 UART3 ADC 模块） |
| DC 电流源 / 负载 | 模拟直流电流输入（接 UART4 ADC 模块） |
| NTC 温度传感器 ×4 | 接 P1.2~P1.5（T1~T4） |
| 0~5V 可调信号源 ×2 | 接 P1.6/P1.7（EXT1/EXT2） |
| 方波信号发生器 | 接 P3.4（频率测试输入） |
| 万用表 | 测量引脚电平、PWM 输出 |
| 示波器 | 观察 PWM 波形（P2.0） |

### 2.2 软件准备

1. 使用 STC-ISP 烧录最新固件（注意：下载时需启用 EEPROM 功能，否则掉电保存测试会失败）。
2. PC 端运行 `test_app/modbus_pueer.py`（依赖：`pip install PyQt5 pyserial pymodbus`）。
3. 确认从站地址：固件中 `dev_address = 1`（[modbus.c:57](file:///d:/qinheng/smart_pid_control/smart_pid_control/modbus.c#L57)）。

### 2.3 上电初始状态确认

上电后通过调试串口（UART1，9600bps）应看到：
```
System Init
```
- 运行指示灯 P0.1 闪烁（无故障时 200ms 周期，有故障时 100ms 周期）
- HMI 屏幕连接后，主控面板各数据应能正常刷新

---

## 三、Modbus 通信基础测试

### 3.1 通信连接测试

**测试目的**：验证 RS485 通信链路是否正常。

**测试步骤**：
1. HMI/PC 连接 RS485，波特率 9600，8N1，从站 ID = 1。
2. 发送读线圈命令：`01 01 00 00 00 08 3D CC`
3. 观察是否返回正确格式的响应帧。

**预期结果**：
- 返回帧格式：`01 01 01 XX CRC CRC`（XX 为线圈状态字节）
- 上位机软件"通信日志"页显示连接成功，无 CRC 错误。

### 3.2 功能码测试

**测试目的**：验证各 Modbus 功能码是否正常工作。

| 功能码 | 功能 | 测试方法 | 预期结果 |
|--------|------|----------|----------|
| 01 | 读线圈 | 读 0x0000~0x0007 | 返回 8 个线圈状态 |
| 02 | 读离散输入 | 读 10000~10006 | 返回 7 个 DI 状态 |
| 03 | 读保持寄存器 | 读 40000~40116 | 返回对应寄存器值 |
| 04 | 读输入寄存器 | 读 30000~30009 | 返回实时采集值 |
| 05 | 写单个线圈 | 写 0x0001 = 0xFF00 | 启动设备，返回原帧 |
| 06 | 写单个寄存器 | 写 40002 = 100 | 目标温度改为 100，返回原帧 |
| 10 | 写多个寄存器 | 批量写工艺参数 | 返回地址+数量+CRC |

**异常码测试**：
- 写非法值（如线圈写 0x1234）：应返回异常码 03
- 写越界地址：应返回异常码 02

---

## 四、调试模式测试

### 4.1 进入/退出调试模式

**测试目的**：验证调试模式切换，调试模式下使用模拟数据便于核对屏幕显示。

**测试步骤**：
1. 写线圈 0x0000 = ON（0xFF00）：`01 05 00 00 FF 00 8C 0A`
2. 观察调试串口输出 `Debug: Mode enabled`。
3. 读输入寄存器 30000~30009，确认数据为模拟值：
   - 30000 = 660，30001 = 661（前两个为 660+i）
   - 30002~30009 = 0~7（对应偏移地址）
4. 读保持寄存器 40000~40116，未配置项应被写入 2000+i 的特征值。
5. 写线圈 0x0000 = OFF（0x0000）：`01 05 00 00 00 00 CD CA`
6. 观察调试串口输出 `Debug: Mode disabled`。

**预期结果**：
- 调试模式下，HMI 主控面板显示固定模拟值，便于核对地址映射。
- 退出调试模式后，输入寄存器恢复为真实采集值。

**主要逻辑参考**：[main.c:148](file:///d:/qinheng/smart_pid_control/smart_pid_control/main.c#L148) `debug_address_test_init()`、[main.c:176](file:///d:/qinheng/smart_pid_control/smart_pid_control/main.c#L176) `debug_simulate_data_update()`。

---

## 五、输入寄存器（3x）采集测试

### 5.1 频率测量测试（30000）

**测试目的**：验证 P3.4 外部脉冲计数测频功能。

**测试步骤**：
1. 信号发生器接入 P3.4，输出方波（如 1000Hz、5V）。
2. HMI 读取 30000 工作频率寄存器。
3. 改变信号频率（如 500Hz、5000Hz、10000Hz），观察读数变化。

**预期结果**：
- 30000 显示值 = 信号频率 × 5（代码中 `count*5`，见 [main.c:272](file:///d:/qinheng/smart_pid_control/smart_pid_control/main.c#L272)）
- 注意：实际显示值为 `count*5`，需核对量程（0~50000Hz）。
- 无信号输入时，30000 = 0。

### 5.2 直流电压采集测试（30001 / 30020）

**测试目的**：验证 UART3 串口 ADC 电压采集与校准。

**测试步骤**：
1. DC 电压源接入 UART3 ADC 模块输入端。
2. 设置不同电压值（如 0V、10V、50V、100V）。
3. 读取 30020（原始值）和 30001（校准后值）。
4. 若读数偏差，通过 40031（电压校零）和 40032（电压满量程）校准。

**预期结果**：
- 30020 随输入变化线性变化
- 30001 = (30020 - 40031) × 40032 / 5（见 [pid_drive.c:223](file:///d:/qinheng/smart_pid_control/smart_pid_control/pid_drive.c#L223)）

### 5.3 直流电流采集测试（30002 / 30021）

**测试目的**：验证 UART4 串口 ADC 电流采集与校准。

**测试步骤**：
1. DC 电流源/负载接入 UART4 ADC 模块输入端。
2. 设置不同电流值（如 0A、5A、10A、20A）。
3. 读取 30021（原始值）和 30002（校准后值）。
4. 通过 40033（电流校零）和 40034（电流满量程）校准。

**预期结果**：
- 30021 随输入变化线性变化
- 30002 = (30021 - 40033) × 40034 / 5

### 5.4 实时功率计算测试（30003）

**测试目的**：验证真实功率 = 真实电压 × 真实电流。

**测试步骤**：
1. 同时接入电压源和电流源。
2. 读取 30001（电压）、30002（电流）、30003（功率）。

**预期结果**：
- 30003 = 30001 × 30002（见 [pid_drive.c:234](file:///d:/qinheng/smart_pid_control/smart_pid_control/pid_drive.c#L234)）
- 例：电压=100，电流=10，则功率=1000

### 5.5 温度采集测试（30004~30007 / 30022~30025）

**测试目的**：验证 4 路 NTC 温度采集与校准。

**测试步骤**：
1. NTC 传感器分别接入 P1.2（T1）、P1.3（T2）、P1.4（T3）、P1.5（T4）。
2. 在常温下读取 30022~30025（ADC 原始值）和 30004~30007（温度值）。
3. 用手握住 NTC 传感器升温，观察温度上升。
4. 如需校准，通过 40035/40036（T1）、40037/40038（T2）、40039/40040（T3）、40041/40042（T4）调整。

**预期结果**：
- 常温下 30004~30007 应显示 25℃ 左右
- 30022~30025 为 ADC 原始值（0~4095）
- 温度计算采用 NTC B 值法（B=3950，R0=10kΩ，见 [adc_sensor.c:69](file:///d:/qinheng/smart_pid_control/smart_pid_control/adc_sensor.c#L69)）

### 5.6 外部模拟量采集测试（30008/30009 / 30026/30027）

**测试目的**：验证 2 路 0~5V 外部模拟量采集。

**测试步骤**：
1. 可调电压源接入 P1.6（EXT1）、P1.7（EXT2）。
2. 输入 0V、1V、2.5V、5V，读取 30026/30027（原始）和 30008/30009（校准后）。
3. 通过 40043/40044（EXT1）、40045/40046（EXT2）校准。

**预期结果**：
- 30026/30027 = ADC 值（0~4095）
- 30008/30009 = (原始值 - 校零) × 满量程 / 5

---

## 六、保持寄存器（4x）读写测试

### 6.1 控制方式与控制模式测试

**测试目的**：验证 40001（控制方式）和 40003（控制模式）的切换。

**测试步骤**：
1. 写 40001 = 1（触屏模式），写 40003 = 0（功率模式）。
2. 通过 HMI 启动设备（写线圈 0x0001 = ON）。
3. 写 40003 = 1（分段模式），再写 40003 = 2（温控模式）。
4. 读取 40001、40003 确认值保持。

**预期结果**：
- 模式切换后，PID 控制逻辑应相应变化（见 [run_control.c:188](file:///d:/qinheng/smart_pid_control/smart_pid_control/run_control.c#L188)）
- 模式 > 2 自动降级为模式 0

### 6.2 目标温度/功率设置测试

**测试步骤**：
1. 写 40002（目标温度）= 80。
2. 写 40011（目标功率）= 5000。
3. 写 40027（功率限制）= 3000。
4. 读取上述寄存器确认。

**预期结果**：
- 40002 = 80，40011 = 5000
- 实际目标功率受 40027 限制，运行时目标功率 = min(40011, 40027)（见 [pid_drive.c:480](file:///d:/qinheng/smart_pid_control/smart_pid_control/pid_drive.c#L480)）

### 6.3 报警上下限设置测试

**测试步骤**：
1. 写 40021（电压下限）= 50，40022（电压上限）= 300。
2. 写 40023（频率下限）= 45，40024（频率上限）= 55。
3. 写 40025（温度上限）= 80，40026（温度下限）= 10。
4. 断电重新上电，读取这些寄存器。

**预期结果**：
- 所有报警限值掉电保持
- 报警判断逻辑见 [alarm_manager.c:267](file:///d:/qinheng/smart_pid_control/smart_pid_control/alarm_manager.c#L267)

### 6.4 模拟量校准参数测试

**测试目的**：验证 8 路模拟量校准参数（校零/满量程）的正确读写和生效。

**测试步骤**：
1. 记录某通道原始值（如 30020）。
2. 写 40031（电压校零）= 原始值，观察 30001 是否归零。
3. 写 40032（电压满量程）= 500，输入满量程电压，观察 30001 是否接近 500。
4. 重复以上步骤对其他通道校准。

**预期结果**：
- 校零参数为有符号数（偏移 31,33,35,37,39,41,43,45）
- 校准公式：实际值 = (原始值 - 校零) × 满量程 / 5（见 [pid_drive.c:223](file:///d:/qinheng/smart_pid_control/smart_pid_control/pid_drive.c#L223)）

### 6.5 掉电保存测试

**测试目的**：验证保持寄存器写入 EEPROM 的掉电保持功能。

**测试步骤**：
1. 上位机点击"掉电保存测试"按钮（或手动执行）：
   - 写 40002 = 12345
   - 等待 3 秒
   - 读取 30028（EEPROM 保存状态）
2. 状态 = 2（保存成功）后，断开控制板电源。
3. 等待 5 秒后重新上电。
4. 重新连接，读 40002。

**预期结果**：
- 30028 状态：0=空闲，1=正在保存，2=保存成功，3=保存失败
- 重新上电后 40002 = 12345
- 若 30028 = 3，检查 STC-ISP 下载时是否启用 EEPROM 功能。

**主要逻辑参考**：[modbus_comm.c:66](file:///d:/qinheng/smart_pid_control/smart_pid_control/modbus_comm.c#L66) `modbus_holding_save_process()`、[main.c:71](file:///d:/qinheng/smart_pid_control/smart_pid_control/main.c#L71) `holding_regs_load()`。

---

## 七、线圈（0x）控制测试

### 7.1 启停控制测试（线圈 0x0001）

**测试目的**：验证触屏启停控制。

**测试步骤**：
1. 写 40001 = 1（触屏模式）。
2. 写线圈 0x0001 = ON（0xFF00）：`01 05 00 01 FF 00 DD FA`
3. 观察设备运行状态：
   - P5.5（加热输出）应为低电平
   - P2.1（工作状态指示）应为低电平（加热中）
   - 离散输入 10000（工作状态）= 1
4. 写线圈 0x0001 = OFF（0x0000）：`01 05 00 01 00 00 9C 0A`
5. 观察设备停止。

**预期结果**：
- 启动后 P5.5 = 0（加热输出有效，低电平有效）
- 启动后离散输入 10000 = 1
- 停止后 P5.5 = 1，10000 = 0

### 7.2 故障复位测试（线圈 0x0006）

**测试步骤**：
1. 触发任一故障（如短接 P5.0 过流输入）。
2. 确认离散输入 10003（过流故障）= 1。
3. 解除故障源（断开 P5.0 短接）。
4. 写线圈 0x0006 = ON：`01 05 00 06 FF 00 7D FA`
5. 读取离散输入 10003。

**预期结果**：
- 写 0x0006 后，所有故障锁存被清除（见 [alarm_manager.c:250](file:///d:/qinheng/smart_pid_control/smart_pid_control/alarm_manager.c#L250)）
- 故障源未解除时，故障会再次触发

---

## 八、离散输入（1x）与报警功能测试

### 8.1 工作状态测试（10000）

**测试步骤**：
1. 待机状态下读 10000，应为 0。
2. 启动设备（按键或触屏），读 10000，应为 1。
3. 停止设备，读 10000，应为 0。

**说明**：10000 由 P2.1 引脚电平决定（取反），待机=1，加热=0（见 [alarm_manager.c:256](file:///d:/qinheng/smart_pid_control/smart_pid_control/alarm_manager.c#L256)）。

### 8.2 过流故障测试（10003）

**测试步骤**：
1. 设备处于非维修模式（P4.1 = 0）。
2. 短接 P5.0 到 VCC（模拟过流信号）。
3. 等待 50ms（消抖时间）。
4. 读取 10003。
5. 观察 P2.3（过流报警输出）和 P0.7（总故障输出）。

**预期结果**：
- 10003 = 1
- P2.3 = 1（过流报警输出高电平）
- P0.7 = 1（总故障输出）
- 故障指示灯闪烁周期变为 100ms

### 8.3 水压/缺水故障测试（10002）

**测试步骤**：
1. 短接 P4.3 到 VCC（模拟缺水信号）。
2. 等待 50ms 消抖。
3. 读取 10002。
4. 观察 P2.6（水压报警输出）。

**预期结果**：
- 10002 = 1
- P2.6 = 1

### 8.4 水温故障测试（10001）

**测试步骤**：
1. 设置 40025（温度上限）= 30，40026（温度下限）= 10。
2. 让 NTC 传感器升温超过 30℃（如用手握住）。
3. 读取 10001。
4. 观察 P2.5（水温报警输出）。

**预期结果**：
- 任一温度（T1~T4）超出上下限时，10001 = 1
- P2.5 = 1
- 报警判断逻辑见 [alarm_manager.c:279](file:///d:/qinheng/smart_pid_control/smart_pid_control/alarm_manager.c#L279)

### 8.5 缺相故障测试（10004）

**测试步骤**：
1. 在 P0.6 输入持续高电平（≥10ms），模拟两相缺相。
2. 或输入 10ms 高脉冲，模拟接触不良。
3. 读取 10004。
4. 观察 P2.7（缺相报警输出）。

**预期结果**：
- 连续 2 次（10ms）高电平即触发缺相
- 连续 40 次（200ms）低电平才恢复
- 10004 = 1，P2.7 = 1
- 检测逻辑见 [alarm_manager.c:185](file:///d:/qinheng/smart_pid_control/smart_pid_control/alarm_manager.c#L185)

### 8.6 电压超限故障测试（10005）

**测试步骤**：
1. 设置 40021（电压下限）= 100，40022（电压上限）= 300。
2. 启动设备（触屏/按键/远控任一）。
3. 等待 2 秒（启动延迟，见 [alarm_manager.c:264](file:///d:/qinheng/smart_pid_control/smart_pid_control/alarm_manager.c#L264)）。
4. 调整输入电压使 30001 < 100 或 > 300。
5. 读取 10005。
6. 观察 P2.4（电网报警输出）。

**预期结果**：
- 启动 2 秒后才开始判断（防止上电瞬间误报）
- 10005 = 1，P2.4 = 1

### 8.7 频率超限故障测试（10006）

**测试步骤**：
1. 设置 40023（频率下限）= 45，40024（频率上限）= 55。
2. 启动设备，等待 2 秒。
3. 调整输入频率使 30000 超出范围。
4. 读取 10006。
5. 观察 P2.2（频率报警输出）。

**预期结果**：
- 10006 = 1，P2.2 = 1

### 8.8 维修模式测试

**测试步骤**：
1. 触发任一故障。
2. 将 P4.1 置高电平（维修模式开关）。
3. 等待 50ms 消抖。
4. 读取所有故障 DI（10001~10006）。

**预期结果**：
- 维修模式下所有故障被屏蔽（见 [alarm_manager.c:241](file:///d:/qinheng/smart_pid_control/smart_pid_control/alarm_manager.c#L241)）
- 故障 DI 清零，报警输出清零
- 故障指示灯恢复正常闪烁

---

## 九、PID 控制功能测试

### 9.1 功率恒定模式测试（模式 0）

**测试目的**：验证功率 PID 闭环控制。

**测试步骤**：
1. 写 40001 = 1（触屏模式），40003 = 0（功率模式）。
2. 写 40011（目标功率）= 1000。
3. 写 40027（功率限制）= 5000。
4. 设置功控 PID 参数：
   - 40110（采样时间）= 100ms
   - 40112（比例增益）= 100（即 1.00 倍）
   - 40113（积分增益）= 10
   - 40114（微分增益）= 0
5. 启动设备，观察 40116（功控 PWM 调节量）和 30003（实时功率）。
6. 用示波器观察 P2.0 PWM 输出波形。

**预期结果**：
- 30003 逐渐趋近 40011 目标值
- 40116 显示当前 PWM 百分比（0~1000 对应 0.0%~100.0%）
- P2.0 输出 PWM 方波，占空比随 PID 调节变化
- 控制逻辑见 [run_control.c:225](file:///d:/qinheng/smart_pid_control/smart_pid_control/run_control.c#L225)

### 9.2 分段加热模式测试（模式 1）

**测试目的**：验证 5 工件 × 5 段工艺曲线执行。

**测试步骤**：
1. 写 40003 = 1（分段模式）。
2. 写 40101（当前工件编号）= 1。
3. 设置工件 1 的 5 段参数（偏移 50~59）：
   - 段1：40050（功率）= 500，40051（时间）= 50（5 秒）
   - 段2：40052（功率）= 1000，40053（时间）= 100（10 秒）
   - 段3：40054（功率）= 1500，40055（时间）= 200（20 秒）
   - 段4：40056（功率）= 2000，40057（时间）= 0（跳过）
   - 段5：40058（功率）= 0，40059（时间）= 0（跳过）
4. 启动设备，观察 30003（实时功率）和 40116（PWM 调节量）随时间变化。

**预期结果**：
- 段1：目标功率 500，持续 5 秒
- 段2：目标功率 1000，持续 10 秒
- 段3：目标功率 1500，持续 20 秒
- 段4/段5：时间为 0，直接跳过
- 所有段执行完毕后自动停止
- 逻辑见 [run_control.c:101](file:///d:/qinheng/smart_pid_control/smart_pid_control/run_control.c#L101) `Segment_Heat_Update()`

### 9.3 温度闭环模式测试（模式 2）

**测试目的**：验证温度 PID 外环 + 功率 PID 内环级联控制。

**测试步骤**：
1. 写 40003 = 2（温控模式）。
2. 写 40002（目标温度）= 50。
3. 设置温控 PID 参数：
   - 40102（采样时间）= 1000ms
   - 40104（比例增益）= 200（2.00 倍）
   - 40105（积分增益）= 20
   - 40106（微分增益）= 5
4. 设置功控 PID 参数（同 9.1）。
5. 启动设备，观察：
   - 30004（T1 温度）逐渐上升
   - 40108（温控输出目标功率）随温度误差变化
   - 40116（功控 PWM 调节量）随功率误差变化
6. 温度达到目标值后，观察 PID 稳定控制效果。

**预期结果**：
- 温度 PID 根据温度误差输出目标功率（40108）
- 功率 PID 根据功率误差输出 PWM（40116）
- 温度最终稳定在 50℃ 附近
- 逻辑见 [run_control.c:216](file:///d:/qinheng/smart_pid_control/smart_pid_control/run_control.c#L216)

### 9.4 PWM 输出测试

**测试步骤**：
1. 启动设备进入任一控制模式。
2. 用示波器测量 P2.0 PWM 输出。
3. 读取 40116（PWM 调节量，0~1000 = 0.0%~100.0%）。

**预期结果**：
- P2.0 输出 PWM 方波，频率固定
- 占空比 = 40116 / 10 %
- 停止设备后 PWM 占空比立即归零（见 [run_control.c:173](file:///d:/qinheng/smart_pid_control/smart_pid_control/run_control.c#L173)）

---

## 十、启停控制方式测试

### 10.1 按键启停测试

**测试步骤**：
1. 不写 40001（非触屏模式）或触屏模式均可（按键独立于控制方式）。
2. 按下 P3.7（启动按钮），观察设备启动。
3. 按下 P3.6（停止按钮），观察设备停止。

**预期结果**：
- P3.7 低电平有效，按下即启动（20ms 消抖）
- P3.6 低电平有效，按下即停止
- 逻辑见 [main.c:312](file:///d:/qinheng/smart_pid_control/smart_pid_control/main.c#L312) `key_scan()`

### 10.2 远程端子启停测试

**测试步骤**：
1. 设备处于停止状态。
2. 短按 P5.2（远程输入，低电平有效）< 2 秒，然后释放。
3. 观察设备启动。
4. 再次短按 P5.2，观察设备停止。
5. 长按 P5.2 ≥ 2 秒，观察设备强制停止。

**预期结果**：
- 短按（<2s）切换运行/停止状态
- 长按（≥2s）强制停止
- 50ms 消抖
- 逻辑见 [run_control.c:262](file:///d:/qinheng/smart_pid_control/smart_pid_control/run_control.c#L262) `Remote_Control_Scan()`

### 10.3 触屏启停测试

**测试步骤**：
1. 写 40001 = 1（触屏模式）。
2. 写线圈 0x0001 = ON，观察启动。
3. 写线圈 0x0001 = OFF，观察停止。

**预期结果**：
- 仅当 40001 = 1 时，线圈 0x0001 才生效
- 三路启动源任一有效即运行（见 [run_control.c:26](file:///d:/qinheng/smart_pid_control/smart_pid_control/run_control.c#L26)）

---

## 十一、指示灯与输出信号测试

### 11.1 运行指示灯测试（P0.1）

**测试步骤**：
1. 无故障状态下观察 P0.1。
2. 触发任一故障，观察 P0.1。

**预期结果**：
- 无故障：200ms 周期闪烁
- 有故障：100ms 周期闪烁（加快）
- 逻辑见 [alarm_manager.c:97](file:///d:/qinheng/smart_pid_control/smart_pid_control/alarm_manager.c#L97)

### 11.2 加热输出测试（P5.5）

**测试步骤**：
1. 待机状态下测 P5.5。
2. 启动设备后测 P5.5。

**预期结果**：
- 待机：P5.5 = 1（高电平）
- 加热：P5.5 = 0（低电平有效）

### 11.3 充电完成信号测试（P5.4）

**测试步骤**：
1. 设置 40028（充电设置）为某一阈值。
2. 启动设备，观察 P5.4 状态变化。

**预期结果**：
- 达到设定值时 P5.4 = 1

### 11.4 报警输出集中测试

| 报警输出 | 引脚 | 触发条件 | 预期电平 |
|----------|------|----------|----------|
| 过流报警 | P2.3 | 10003 = 1 | 高 |
| 水压报警 | P2.6 | 10002 = 1 | 高 |
| 水温报警 | P2.5 | 10001 = 1 | 高 |
| 缺相报警 | P2.7 | 10004 = 1 | 高 |
| 电网报警 | P2.4 | 10005 = 1 | 高 |
| 频率报警 | P2.2 | 10006 = 1 | 高 |
| 总故障 | P0.7 | 任一故障 | 高 |

---

## 十二、综合测试场景

### 12.1 完整运行流程测试

**测试步骤**：
1. 上电，确认 `System Init` 输出。
2. HMI 连接，读各寄存器确认通信正常。
3. 校准所有模拟量通道。
4. 设置报警上下限。
5. 设置 PID 参数。
6. 设置工艺曲线（分段模式）或目标温度（温控模式）。
7. 启动设备，观察：
   - 加热输出 P5.5 = 0
   - 工作状态 10000 = 1
   - PWM 输出 P2.0 有波形
   - 实时数据正常刷新
8. 运行中触发报警，观察报警输出和指示灯。
9. 故障复位，观察恢复。
10. 停止设备，观察所有输出归零。
11. 断电重新上电，确认参数保持。

### 12.2 故障恢复测试

**测试步骤**：
1. 启动设备运行。
2. 依次触发 6 路故障，观察报警输出。
3. 解除故障源，写线圈 0x0006 复位。
4. 确认所有报警 DI 清零，报警输出归零。
5. 设备能继续正常运行。

### 12.3 模式切换测试

**测试步骤**：
1. 设备运行中，在功率/分段/温控三种模式间切换。
2. 观察切换后 PID 状态是否复位重新开始。
3. 确认切换时无异常输出。

**预期结果**：
- 模式切换时 PID 和分段状态复位（见 [run_control.c:91](file:///d:/qinheng/smart_pid_control/smart_pid_control/run_control.c#L91)）
- 切换后从干净状态开始控制

---

## 十三、测试记录与判定

### 13.1 测试通过判据

| 测试项 | 通过标准 |
|--------|----------|
| Modbus 通信 | 所有功能码响应正确，无 CRC 错误 |
| 模拟量采集 | 误差在校准可接受范围内 |
| 报警功能 | 6 路报警均能正确触发和复位 |
| PID 控制 | 能稳定闭环，超调可接受 |
| 掉电保存 | 重新上电后参数完整保持 |
| 指示灯/输出 | 各输出引脚电平符合预期 |

### 13.2 常见问题排查

| 现象 | 可能原因 | 排查方法 |
|------|----------|----------|
| 通信无响应 | RS485 方向/波特率/从站地址 | 检查 P5.3 方向控制，确认 9600bps |
| EEPROM 保存失败 | STC-ISP 未启用 EEPROM | 重新下载固件，勾选 EEPROM 选项 |
| 温度显示异常 | NTC 接线/参数错误 | 检查 P1.2~P1.5 接线，核对 B 值 |
| PWM 无输出 | 设备未启动/PID 参数为 0 | 确认启动状态，检查 40112/40104 增益 |
| 故障不触发 | 处于维修模式/调试模式 | 检查 P4.1 维修开关，线圈 0x0000 调试模式 |
| 频率显示为 0 | P3.4 无信号/信号幅值不足 | 确认方波信号 ≥3V，下降沿有效 |

---

## 附录 A：Modbus 寄存器地址速查

### 线圈（0x）
| 地址 | 偏移 | 说明 |
|------|------|------|
| 0x0000 | 0 | 调试模式 |
| 0x0001 | 1 | 启动/停止 |
| 0x0002 | 2 | 分段加热使能 |
| 0x0003 | 3 | 温度 PID 使能 |
| 0x0006 | 6 | 故障复位 |

### 离散输入（1x）
| 地址 | 偏移 | 说明 |
|------|------|------|
| 10000 | 0 | 工作状态 |
| 10001 | 1 | 水温故障 |
| 10002 | 2 | 水压故障 |
| 10003 | 3 | 过流故障 |
| 10004 | 4 | 缺相故障 |
| 10005 | 5 | 电压超限故障 |
| 10006 | 6 | 频率超限故障 |

### 输入寄存器（3x）
| 地址 | 偏移 | 说明 | 单位 |
|------|------|------|------|
| 30000 | 0 | 工作频率 | Hz |
| 30001 | 1 | 直流电压 | V |
| 30002 | 2 | 直流电流 | A |
| 30003 | 3 | 实时功率 | W |
| 30004~30007 | 4~7 | 温度 T1~T4 | ℃ |
| 30008~30009 | 8~9 | 外部 ADC1/2 | - |
| 30020~30027 | 20~27 | 原始采集值 | - |
| 30028 | 28 | EEPROM 保存状态 | - |

### 保持寄存器（4x）主要项
| 地址 | 偏移 | 说明 |
|------|------|------|
| 40001 | 1 | 控制方式（1=触屏） |
| 40002 | 2 | 目标温度 |
| 40003 | 3 | 控制模式（0=功率/1=分段/2=温控） |
| 40011 | 11 | 目标功率 |
| 40021~40026 | 21~26 | 报警上下限 |
| 40027 | 27 | 功率限制 |
| 40031~40046 | 31~46 | 模拟量校准参数 |
| 40050~40099 | 50~99 | 工艺曲线（5 工件 × 5 段） |
| 40101 | 101 | 当前工件编号 |
| 40102~40108 | 102~108 | 温度 PID 参数 |
| 40110~40116 | 110~116 | 功率 PID 参数 |

---

## 附录 B：调试串口命令示例

以下命令均以从站地址 01 为例：

```
读线圈(0~7):        01 01 00 00 00 08 3D CC
读离散输入(0~6):    01 02 00 00 00 07 FD CA
读保持寄存器(0~9):  01 03 00 00 00 0A C5 CD
读输入寄存器(0~9):  01 04 00 00 00 0A 71 0D

写线圈0=ON(调试):   01 05 00 00 FF 00 8C 0A
写线圈0=OFF:        01 05 00 00 00 00 CD CA
写线圈1=ON(启动):   01 05 00 01 FF 00 DD FA
写线圈1=OFF(停止):  01 05 00 01 00 00 9C 0A
写线圈6=ON(复位):   01 05 00 06 FF 00 7D FA

写40002=100:        01 06 00 02 00 64 E8 09
写40003=2(温控):    01 06 00 03 00 02 79 CA
写40101=1(工件1):   01 06 00 65 00 01 51 D9
```
